
T2768 000:453 SEGGER J-Link V4.35b (beta) Log File (0001ms, 0452ms total)
T2768 000:453 DLL Compiled: Sep  2 2011 18:34:46 (0001ms, 0452ms total)
T2768 000:453 Logging started @ 2016-01-13 19:51 (0001ms, 0452ms total)
T2768 000:454 JLINK_SetWarnOutHandler(...) (0000ms, 0453ms total)
T2768 000:454 JLINK_OpenEx(...)
Firmware: J-Link ARM V8 compiled Nov 14 2012 22:34:52
Hardware: V8.00
S/N: 99999994
Feature(s): RDI,FlashDL,FlashBP,JFlash,GDBFULL  returns O.K. (0241ms, 0453ms total)
T2768 000:697 JLINK_SetErrorOutHandler(...) (0000ms, 0694ms total)
T2768 000:697 JLINK_ExecCommand("Device = STM32F103VE", ...)
                JLINK_ExecCommand("map ram 0x20000000 - 0x2000FFFF", ...)  returns 0x00 (0000ms, 0000ms total)
                JLINK_AddMirrorAreaEx(Addr = 0x00000000, Size = 0x00000000) (0000ms, 0000ms total)
              Device "STM32F103VE" selected (512 KB flash, 64 KB RAM).  returns 0x00 (0003ms, 0694ms total)
T2768 000:702 JLINK_ExecCommand("ProjectFile = "F:\电动执行机构2\CODE\Git\Valve_4_add_modbus_control   screen\USER\JLinkSettings.ini"", ...)  returns 0x00 (0000ms, 0697ms total)
T2768 000:704 JLINK_ExecCommand("DisableConnectionTimeout", ...)  returns 0x00 (0000ms, 0697ms total)
T2768 000:704 JLINK_TIF_Select(JLINKARM_TIF_SWD)  returns 0x00 (0002ms, 0697ms total)
T2768 000:706 JLINK_SetSpeed(2000) (0000ms, 0699ms total)
T2768 000:706 JLINK_GetHardwareVersion()  returns 0x13880 (0000ms, 0699ms total)
T2768 000:706 JLINK_GetDLLVersion()  returns 43502 (0000ms, 0699ms total)
T2768 000:706 JLINK_GetFirmwareString(...) (0000ms, 0699ms total)
T2768 000:715 JLINK_GetDLLVersion()  returns 43502 (0000ms, 0699ms total)
T2768 000:715 JLINK_GetCompileDateTime() (0000ms, 0699ms total)
T2768 000:718 JLINK_GetFirmwareString(...) (0000ms, 0699ms total)
T2768 000:719 JLINK_GetHardwareVersion()  returns 0x13880 (0000ms, 0699ms total)
T2768 000:727 JLINK_GetId() >0x108 TIF>Found SWD-DP with ID 0x1BA01477 >0x33 TIF> >0x33 TIF> >0x35 TIF> >0x33 TIF> >0x35 TIF> >0x33 TIF> >0x33 TIF> >0x35 TIF> >0x33 TIF> >0x33 TIF> >0x35 TIF> >0x33 TIF> >0x33 TIF> >0x35 TIF> >0x33 TIF> >0x33 TIF> >0x35 TIF> >0x35 TIF> >0x35 TIF> >0x35 TIF> >0x35 TIF> >0x33 TIF> >0x33 TIF> >0x35 TIF> >0x33 TIF> >0x33 TIF> >0x33 TIF>TPIU fitted.ETM fitted. >0x35 TIF> >0x33 TIF> >0x33 TIF> >0x35 TIF> >0x33 TIF> >0x33 TIF>  FPUnit: 6 code (BP) slots and 2 literal slots
 >0x35 TIF> >0x33 TIF> >0x33 TIF> >0x35 TIF> >0x33 TIF> >0x33 TIF> >0x35 TIF> >0x33 TIF> >0x33 TIF>Found Cortex-M3 r1p1, Little endian. >0x33 TIF>  returns 0x1BA01477 (0044ms, 0699ms total)
T2768 000:771 JLINK_GetDebugInfo(0x100) -- Value=0xE00FF003  returns 0x00 (0000ms, 0743ms total)
T2768 000:775 JLINK_ReadMem (0xE00FFFF0, 0x0010 Bytes, ...) -- CPU is running -- CPU_ReadMem(16 bytes @ 0xE00FFFF0) -- Data:  0D 00 00 00 10 00 00 00 05 00 00 00 B1 00 00 00  returns 0x00 (0002ms, 0743ms total)
T2768 000:777 JLINK_ReadMem (0xE00FFFD0, 0x0020 Bytes, ...) -- CPU is running -- CPU_ReadMem(32 bytes @ 0xE00FFFD0) -- Data:  00 00 00 00 00 00 00 00 00 00 00 00 00 00 00 00 ...  returns 0x00 (0001ms, 0745ms total)
T2768 000:778 JLINK_ReadMem (0xE00FF000, 0x0018 Bytes, ...) -- CPU is running -- CPU_ReadMem(24 bytes @ 0xE00FF000) -- Data:  03 F0 F0 FF 03 20 F0 FF 03 30 F0 FF 03 10 F0 FF ...  returns 0x00 (0001ms, 0746ms total)
T2768 000:779 JLINK_ReadMemU32(0xE000ED00, 0x0001 Items, ...) -- CPU is running -- CPU_ReadMem(4 bytes @ 0xE000ED00) -- Data:  31 C2 1F 41  returns 0x01 (0001ms, 0747ms total)
T2768 000:780 JLINK_SetResetType(JLINKARM_RESET_TYPE_NORMAL)  returns JLINKARM_RESET_TYPE_NORMAL (0000ms, 0748ms total)
T2768 000:780 JLINK_Reset() >0x108 TIF>Found SWD-DP with ID 0x1BA01477 >0x33 TIF> >0x33 TIF> >0x35 TIF> >0x33 TIF> >0x35 TIF> >0x33 TIF> >0x33 TIF> >0x35 TIF> >0x33 TIF> >0x33 TIF> >0x35 TIF> >0x33 TIF> >0x33 TIF> >0x35 TIF> >0x33 TIF> >0x33 TIF> >0x35 TIF> >0x35 TIF> >0x35 TIF> >0x35 TIF> >0x35 TIF> >0x33 TIF> >0x33 TIF> >0x35 TIF> >0x33 TIF> >0x33 TIF> >0x33 TIF>TPIU fitted.ETM fitted. >0x35 TIF> >0x33 TIF> >0x33 TIF> >0x35 TIF> >0x33 TIF> >0x33 TIF>  FPUnit: 6 code (BP) slots and 2 literal slots
 >0x35 TIF> >0x33 TIF> >0x33 TIF> >0x35 TIF> >0x33 TIF> >0x33 TIF> >0x35 TIF> >0x33 TIF> >0x33 TIF>Found Cortex-M3 r1p1, Little endian. -- CPU is running -- CPU_WriteMem(4 bytes @ 0xE000EDF0) -- CPU is running -- CPU_WriteMem(4 bytes @ 0xE000EDFC) >0x35 TIF> -- CPU is running -- CPU_WriteMem(4 bytes @ 0xE000ED0C) -- CPU is running -- CPU_ReadMem(4 bytes @ 0xE000EDF0) -- CPU is running -- CPU_ReadMem(4 bytes @ 0xE000EDF0) -- CPU is running -- CPU_WriteMem(4 bytes @ 0xE000EDF0) -- CPU is running
 -- CPU_WriteMem(4 bytes @ 0xE000EDFC) -- CPU is running -- CPU_ReadMem(4 bytes @ 0xE000EDF0) (0056ms, 0748ms total)
T2768 000:836 JLINK_Halt()  returns 0x00 (0000ms, 0804ms total)
T2768 000:836 JLINK_IsHalted()  returns TRUE (0000ms, 0804ms total)
T2768 000:836 JLINK_ReadMemU32(0xE000EDF0, 0x0001 Items, ...) -- CPU_ReadMem(4 bytes @ 0xE000EDF0) -- Data:  03 00 03 00  returns 0x01 (0001ms, 0804ms total)
T2768 000:837 JLINK_WriteU32(0xE000EDF0, 0xA05F0003) -- CPU_WriteMem(4 bytes @ 0xE000EDF0)  returns 0x00 (0002ms, 0805ms total)
T2768 000:839 JLINK_WriteU32(0xE000EDFC, 0x01000000) -- CPU_WriteMem(4 bytes @ 0xE000EDFC)  returns 0x00 (0001ms, 0807ms total)
T2768 000:840 JLINK_ReadMemU32(0xE0002000, 0x0001 Items, ...) -- CPU_ReadMem(4 bytes @ 0xE0002000) -- Data:  60 02 00 00  returns 0x01 (0001ms, 0808ms total)
T2768 000:841 JLINK_ReadMemU32(0xE0001000, 0x0001 Items, ...) -- CPU_ReadMem(4 bytes @ 0xE0001000) -- Data:  01 00 00 40  returns 0x01 (0002ms, 0809ms total)
T2768 000:843 JLINK_WriteU32(0xE0001028, 0x00000000) -- CPU_WriteMem(4 bytes @ 0xE0001028)  returns 0x00 (0000ms, 0811ms total)
T2768 000:843 JLINK_WriteU32(0xE0001038, 0x00000000) -- CPU_WriteMem(4 bytes @ 0xE0001038)  returns 0x00 (0001ms, 0811ms total)
T2768 000:844 JLINK_WriteU32(0xE0001048, 0x00000000) -- CPU_WriteMem(4 bytes @ 0xE0001048)  returns 0x00 (0001ms, 0812ms total)
T2768 000:845 JLINK_WriteU32(0xE0001058, 0x00000000) -- CPU_WriteMem(4 bytes @ 0xE0001058)  returns 0x00 (0001ms, 0813ms total)
T2768 000:861 JLINK_GetHWStatus(...)  returns 0x00 (0001ms, 0814ms total)
T2768 000:876 JLINK_GetNumBPUnits(Type = 0xFFFFFF00)  returns 0x06 (0000ms, 0815ms total)
T2768 000:876 JLINK_GetNumBPUnits(Type = 0xF0)  returns 0x2000 (0000ms, 0815ms total)
T2768 000:876 JLINK_GetNumWPUnits()  returns 0x00 (0000ms, 0815ms total)
T2768 000:893 JLINK_GetSpeed()  returns 0x7D0 (0000ms, 0815ms total)
T2768 000:906 JLINK_ReadMemU32(0xE000E004, 0x0001 Items, ...) -- CPU_ReadMem(4 bytes @ 0xE000E004) -- Data:  01 00 00 00  returns 0x01 (0000ms, 0815ms total)
T2768 000:906 JLINK_ReadMemU32(0xE000E004, 0x0001 Items, ...) -- CPU_ReadMem(4 bytes @ 0xE000E004) -- Data:  01 00 00 00  returns 0x01 (0001ms, 0815ms total)
T2768 000:907 JLINK_WriteMem(0xE0001000, 0x001C Bytes, ...) -- Data:  01 00 00 00 00 00 00 00 00 00 00 00 00 00 00 00 ... -- CPU_WriteMem(28 bytes @ 0xE0001000)  returns 0x1C (0003ms, 0816ms total)
T2768 000:910 JLINK_ReadMem (0xE0001000, 0x001C Bytes, ...) -- CPU_ReadMem(28 bytes @ 0xE0001000) -- Data:  01 00 00 40 00 00 00 00 00 00 00 00 00 00 00 00 ...  returns 0x00 (0001ms, 0819ms total)
T2768 000:911 JLINK_Halt()  returns 0x00 (0000ms, 0820ms total)
T2768 000:911 JLINK_IsHalted()  returns TRUE (0000ms, 0820ms total)
T2768 000:914 JLINK_WriteMem(0x20000000, 0x0164 Bytes, ...) -- Data:  00 BE 0A E0 0D 78 2D 06 68 40 08 24 40 00 00 D3 ... -- CPU_WriteMem(356 bytes @ 0x20000000)  returns 0x164 (0005ms, 0820ms total)
T2768 000:919 JLINK_WriteReg(R0, 0x08000000)  returns 0x00 (0000ms, 0825ms total)
T2768 000:919 JLINK_WriteReg(R1, 0x007A1200)  returns 0x00 (0000ms, 0825ms total)
T2768 000:919 JLINK_WriteReg(R2, 0x00000001)  returns 0x00 (0000ms, 0825ms total)
T2768 000:919 JLINK_WriteReg(R3, 0x00000000)  returns 0x00 (0000ms, 0825ms total)
T2768 000:919 JLINK_WriteReg(R4, 0x00000000)  returns 0x00 (0000ms, 0825ms total)
T2768 000:919 JLINK_WriteReg(R5, 0x00000000)  returns 0x00 (0000ms, 0825ms total)
T2768 000:919 JLINK_WriteReg(R6, 0x00000000)  returns 0x00 (0000ms, 0825ms total)
T2768 000:919 JLINK_WriteReg(R7, 0x00000000)  returns 0x00 (0000ms, 0825ms total)
T2768 000:919 JLINK_WriteReg(R8, 0x00000000)  returns 0x00 (0000ms, 0825ms total)
T2768 000:919 JLINK_WriteReg(R9, 0x20000160)  returns 0x00 (0000ms, 0825ms total)
T2768 000:919 JLINK_WriteReg(R10, 0x00000000)  returns 0x00 (0000ms, 0825ms total)
T2768 000:919 JLINK_WriteReg(R11, 0x00000000)  returns 0x00 (0000ms, 0825ms total)
T2768 000:919 JLINK_WriteReg(R12, 0x00000000)  returns 0x00 (0000ms, 0825ms total)
T2768 000:919 JLINK_WriteReg(R13, 0x20000800)  returns 0x00 (0000ms, 0825ms total)
T2768 000:919 JLINK_WriteReg(R14, 0x20000001)  returns 0x00 (0000ms, 0825ms total)
T2768 000:919 JLINK_WriteReg(R15, 0x20000038)  returns 0x00 (0000ms, 0825ms total)
T2768 000:919 JLINK_WriteReg(XPSR, 0x01000000)  returns 0x00 (0000ms, 0825ms total)
T2768 000:919 JLINK_WriteReg(MSP, 0x20000800)  returns 0x00 (0000ms, 0825ms total)
T2768 000:919 JLINK_WriteReg(PSP, 0x20000800)  returns 0x00 (0000ms, 0825ms total)
T2768 000:919 JLINK_WriteReg(BASEPRI, 0x00000000)  returns 0x00 (0000ms, 0825ms total)
T2768 000:919 JLINK_WriteReg(CONTROL, 0x00000000)  returns 0x00 (0000ms, 0825ms total)
T2768 000:919 JLINK_WriteReg(FAULTMASK, 0x00000000)  returns 0x00 (0000ms, 0825ms total)
T2768 000:919 JLINK_WriteReg(BASEPRI_MAX, 0x00000000)  returns 0x00 (0000ms, 0825ms total)
T2768 000:919 JLINK_SetBPEx(Addr = 0x20000000, Type = 0xFFFFFFF2) -- CPU_ReadMem(2 bytes @ 0x20000000)  returns 0x00000001 (0001ms, 0825ms total)
T2768 000:920 JLINK_Go() -- CPU_WriteMem(2 bytes @ 0x20000000) -- CPU_WriteMem(4 bytes @ 0xE0002008) -- CPU_WriteMem(4 bytes @ 0xE000200C) -- CPU_WriteMem(4 bytes @ 0xE0002010) -- CPU_WriteMem(4 bytes @ 0xE0002014) -- CPU_WriteMem(4 bytes @ 0xE0002018) -- CPU_WriteMem(4 bytes @ 0xE000201C) (0016ms, 0826ms total)
T2768 000:936 JLINK_IsHalted() -- CPU_ReadMem(2 bytes @ 0x20000000)  returns TRUE (0005ms, 0842ms total)
T2768 000:941 JLINK_ReadReg(R15)  returns 0x20000000 (0000ms, 0842ms total)
T2768 000:941 JLINK_ClrBPEx(BPHandle = 0x00000001)  returns 0x00 (0000ms, 0842ms total)
T2768 000:941 JLINK_ReadReg(R0)  returns 0x00000000 (0000ms, 0842ms total)
T2768 000:941 JLINK_WriteReg(R0, 0x08000000)  returns 0x00 (0002ms, 0842ms total)
T2768 000:943 JLINK_WriteReg(R1, 0x007A1200)  returns 0x00 (0000ms, 0844ms total)
T2768 000:943 JLINK_WriteReg(R2, 0x00000001)  returns 0x00 (0000ms, 0844ms total)
T2768 000:943 JLINK_WriteReg(R3, 0x00000000)  returns 0x00 (0000ms, 0844ms total)
T2768 000:943 JLINK_WriteReg(R4, 0x00000000)  returns 0x00 (0000ms, 0844ms total)
T2768 000:943 JLINK_WriteReg(R5, 0x00000000)  returns 0x00 (0000ms, 0844ms total)
T2768 000:943 JLINK_WriteReg(R6, 0x00000000)  returns 0x00 (0000ms, 0844ms total)
T2768 000:943 JLINK_WriteReg(R7, 0x00000000)  returns 0x00 (0000ms, 0844ms total)
T2768 000:943 JLINK_WriteReg(R8, 0x00000000)  returns 0x00 (0000ms, 0844ms total)
T2768 000:943 JLINK_WriteReg(R9, 0x20000160)  returns 0x00 (0000ms, 0844ms total)
T2768 000:943 JLINK_WriteReg(R10, 0x00000000)  returns 0x00 (0000ms, 0844ms total)
T2768 000:943 JLINK_WriteReg(R11, 0x00000000)  returns 0x00 (0000ms, 0844ms total)
T2768 000:943 JLINK_WriteReg(R12, 0x00000000)  returns 0x00 (0000ms, 0844ms total)
T2768 000:943 JLINK_WriteReg(R13, 0x20000800)  returns 0x00 (0000ms, 0844ms total)
T2768 000:943 JLINK_WriteReg(R14, 0x20000001)  returns 0x00 (0000ms, 0844ms total)
T2768 000:943 JLINK_WriteReg(R15, 0x2000007C)  returns 0x00 (0000ms, 0844ms total)
T2768 000:943 JLINK_WriteReg(XPSR, 0x01000000)  returns 0x00 (0000ms, 0844ms total)
T2768 000:943 JLINK_WriteReg(MSP, 0x20000800)  returns 0x00 (0000ms, 0844ms total)
T2768 000:943 JLINK_WriteReg(PSP, 0x20000800)  returns 0x00 (0000ms, 0844ms total)
T2768 000:943 JLINK_WriteReg(BASEPRI, 0x00000000)  returns 0x00 (0000ms, 0844ms total)
T2768 000:943 JLINK_WriteReg(CONTROL, 0x00000000)  returns 0x00 (0000ms, 0844ms total)
T2768 000:943 JLINK_WriteReg(FAULTMASK, 0x00000000)  returns 0x00 (0000ms, 0844ms total)
T2768 000:943 JLINK_WriteReg(BASEPRI_MAX, 0x00000000)  returns 0x00 (0000ms, 0844ms total)
T2768 000:943 JLINK_SetBPEx(Addr = 0x20000000, Type = 0xFFFFFFF2)  returns 0x00000002 (0000ms, 0844ms total)
T2768 000:943 JLINK_Go() -- CPU_WriteMem(4 bytes @ 0xE0002008) -- CPU_WriteMem(4 bytes @ 0xE000200C) -- CPU_WriteMem(4 bytes @ 0xE0002010) -- CPU_WriteMem(4 bytes @ 0xE0002014) -- CPU_WriteMem(4 bytes @ 0xE0002018) -- CPU_WriteMem(4 bytes @ 0xE000201C) (0007ms, 0844ms total)
T2768 000:950 JLINK_IsHalted()  returns FALSE (0001ms, 0851ms total)
T2768 001:001 JLINK_IsHalted() -- CPU_ReadMem(2 bytes @ 0x20000000)  returns TRUE (0004ms, 0851ms total)
T2768 001:006 JLINK_ReadReg(R15)  returns 0x20000000 (0000ms, 0851ms total)
T2768 001:006 JLINK_ClrBPEx(BPHandle = 0x00000002)  returns 0x00 (0000ms, 0851ms total)
T2768 001:006 JLINK_ReadReg(R0)  returns 0x00000000 (0000ms, 0851ms total)
T2768 001:056 JLINK_WriteReg(R0, 0x00000001)  returns 0x00 (0000ms, 0851ms total)
T2768 001:056 JLINK_WriteReg(R1, 0x007A1200)  returns 0x00 (0000ms, 0851ms total)
T2768 001:056 JLINK_WriteReg(R2, 0x00000001)  returns 0x00 (0000ms, 0851ms total)
T2768 001:056 JLINK_WriteReg(R3, 0x00000000)  returns 0x00 (0000ms, 0851ms total)
T2768 001:056 JLINK_WriteReg(R4, 0x00000000)  returns 0x00 (0000ms, 0851ms total)
T2768 001:056 JLINK_WriteReg(R5, 0x00000000)  returns 0x00 (0000ms, 0851ms total)
T2768 001:057 JLINK_WriteReg(R6, 0x00000000)  returns 0x00 (0000ms, 0852ms total)
T2768 001:057 JLINK_WriteReg(R7, 0x00000000)  returns 0x00 (0000ms, 0852ms total)
T2768 001:057 JLINK_WriteReg(R8, 0x00000000)  returns 0x00 (0000ms, 0852ms total)
T2768 001:057 JLINK_WriteReg(R9, 0x20000160)  returns 0x00 (0000ms, 0852ms total)
T2768 001:057 JLINK_WriteReg(R10, 0x00000000)  returns 0x00 (0000ms, 0852ms total)
T2768 001:057 JLINK_WriteReg(R11, 0x00000000)  returns 0x00 (0000ms, 0852ms total)
T2768 001:057 JLINK_WriteReg(R12, 0x00000000)  returns 0x00 (0000ms, 0852ms total)
T2768 001:057 JLINK_WriteReg(R13, 0x20000800)  returns 0x00 (0000ms, 0852ms total)
T2768 001:057 JLINK_WriteReg(R14, 0x20000001)  returns 0x00 (0000ms, 0852ms total)
T2768 001:057 JLINK_WriteReg(R15, 0x2000006A)  returns 0x00 (0000ms, 0852ms total)
T2768 001:057 JLINK_WriteReg(XPSR, 0x01000000)  returns 0x00 (0000ms, 0852ms total)
T2768 001:057 JLINK_WriteReg(MSP, 0x20000800)  returns 0x00 (0000ms, 0852ms total)
T2768 001:057 JLINK_WriteReg(PSP, 0x20000800)  returns 0x00 (0000ms, 0852ms total)
T2768 001:057 JLINK_WriteReg(BASEPRI, 0x00000000)  returns 0x00 (0000ms, 0852ms total)
T2768 001:057 JLINK_WriteReg(CONTROL, 0x00000000)  returns 0x00 (0000ms, 0852ms total)
T2768 001:057 JLINK_WriteReg(FAULTMASK, 0x00000000)  returns 0x00 (0000ms, 0852ms total)
T2768 001:057 JLINK_WriteReg(BASEPRI_MAX, 0x00000000)  returns 0x00 (0000ms, 0852ms total)
T2768 001:057 JLINK_SetBPEx(Addr = 0x20000000, Type = 0xFFFFFFF2)  returns 0x00000003 (0000ms, 0852ms total)
T2768 001:057 JLINK_Go() -- CPU_WriteMem(4 bytes @ 0xE0002008) -- CPU_WriteMem(4 bytes @ 0xE000200C) -- CPU_WriteMem(4 bytes @ 0xE0002010) -- CPU_WriteMem(4 bytes @ 0xE0002014) -- CPU_WriteMem(4 bytes @ 0xE0002018) -- CPU_WriteMem(4 bytes @ 0xE000201C) (0006ms, 0852ms total)
T2768 001:063 JLINK_IsHalted() -- CPU_ReadMem(2 bytes @ 0x20000000)  returns TRUE (0005ms, 0858ms total)
T2768 001:068 JLINK_ReadReg(R15)  returns 0x20000000 (0000ms, 0858ms total)
T2768 001:068 JLINK_ClrBPEx(BPHandle = 0x00000003)  returns 0x00 (0000ms, 0858ms total)
T2768 001:068 JLINK_ReadReg(R0)  returns 0x00000000 (0000ms, 0858ms total)
T2768 001:075 JLINK_WriteMem(0x20000000, 0x0164 Bytes, ...) -- Data:  00 BE 0A E0 0D 78 2D 06 68 40 08 24 40 00 00 D3 ... -- CPU_WriteMem(356 bytes @ 0x20000000)  returns 0x164 (0005ms, 0858ms total)
T2768 001:080 JLINK_WriteReg(R0, 0x08000000)  returns 0x00 (0000ms, 0863ms total)
T2768 001:080 JLINK_WriteReg(R1, 0x007A1200)  returns 0x00 (0000ms, 0863ms total)
T2768 001:080 JLINK_WriteReg(R2, 0x00000002)  returns 0x00 (0000ms, 0863ms total)
T2768 001:080 JLINK_WriteReg(R3, 0x00000000)  returns 0x00 (0000ms, 0863ms total)
T2768 001:080 JLINK_WriteReg(R4, 0x00000000)  returns 0x00 (0000ms, 0863ms total)
T2768 001:080 JLINK_WriteReg(R5, 0x00000000)  returns 0x00 (0000ms, 0863ms total)
T2768 001:080 JLINK_WriteReg(R6, 0x00000000)  returns 0x00 (0000ms, 0863ms total)
T2768 001:080 JLINK_WriteReg(R7, 0x00000000)  returns 0x00 (0000ms, 0863ms total)
T2768 001:080 JLINK_WriteReg(R8, 0x00000000)  returns 0x00 (0000ms, 0863ms total)
T2768 001:080 JLINK_WriteReg(R9, 0x20000160)  returns 0x00 (0000ms, 0863ms total)
T2768 001:080 JLINK_WriteReg(R10, 0x00000000)  returns 0x00 (0000ms, 0863ms total)
T2768 001:080 JLINK_WriteReg(R11, 0x00000000)  returns 0x00 (0000ms, 0863ms total)
T2768 001:080 JLINK_WriteReg(R12, 0x00000000)  returns 0x00 (0000ms, 0863ms total)
T2768 001:080 JLINK_WriteReg(R13, 0x20000800)  returns 0x00 (0000ms, 0863ms total)
T2768 001:080 JLINK_WriteReg(R14, 0x20000001)  returns 0x00 (0000ms, 0863ms total)
T2768 001:080 JLINK_WriteReg(R15, 0x20000038)  returns 0x00 (0000ms, 0863ms total)
T2768 001:080 JLINK_WriteReg(XPSR, 0x01000000)  returns 0x00 (0000ms, 0863ms total)
T2768 001:080 JLINK_WriteReg(MSP, 0x20000800)  returns 0x00 (0000ms, 0863ms total)
T2768 001:080 JLINK_WriteReg(PSP, 0x20000800)  returns 0x00 (0000ms, 0863ms total)
T2768 001:080 JLINK_WriteReg(BASEPRI, 0x00000000)  returns 0x00 (0000ms, 0863ms total)
T2768 001:080 JLINK_WriteReg(CONTROL, 0x00000000)  returns 0x00 (0000ms, 0863ms total)
T2768 001:080 JLINK_WriteReg(FAULTMASK, 0x00000000)  returns 0x00 (0000ms, 0863ms total)
T2768 001:080 JLINK_WriteReg(BASEPRI_MAX, 0x00000000)  returns 0x00 (0000ms, 0863ms total)
T2768 001:080 JLINK_SetBPEx(Addr = 0x20000000, Type = 0xFFFFFFF2) -- CPU_ReadMem(2 bytes @ 0x20000000)  returns 0x00000004 (0001ms, 0863ms total)
T2768 001:081 JLINK_Go() -- CPU_WriteMem(2 bytes @ 0x20000000) -- CPU_WriteMem(4 bytes @ 0xE0002008) -- CPU_WriteMem(4 bytes @ 0xE000200C) -- CPU_WriteMem(4 bytes @ 0xE0002010) -- CPU_WriteMem(4 bytes @ 0xE0002014) -- CPU_WriteMem(4 bytes @ 0xE0002018) -- CPU_WriteMem(4 bytes @ 0xE000201C) (0007ms, 0864ms total)
T2768 001:088 JLINK_IsHalted() -- CPU_ReadMem(2 bytes @ 0x20000000)  returns TRUE (0005ms, 0871ms total)
T2768 001:093 JLINK_ReadReg(R15)  returns 0x20000000 (0000ms, 0871ms total)
T2768 001:093 JLINK_ClrBPEx(BPHandle = 0x00000004)  returns 0x00 (0000ms, 0871ms total)
T2768 001:093 JLINK_ReadReg(R0)  returns 0x00000000 (0000ms, 0871ms total)
T2768 001:094 JLINK_WriteMem(0x20000164, 0x0400 Bytes, ...) -- Data:  98 0C 00 20 01 01 00 08 65 1B 00 08 67 1B 00 08 ... -- CPU_WriteMem(1024 bytes @ 0x20000164)  returns 0x400 (0011ms, 0871ms total)
T2768 001:105 JLINK_WriteReg(R0, 0x08000000)  returns 0x00 (0000ms, 0882ms total)
T2768 001:105 JLINK_WriteReg(R1, 0x00000400)  returns 0x00 (0000ms, 0882ms total)
T2768 001:105 JLINK_WriteReg(R2, 0x20000164)  returns 0x00 (0000ms, 0882ms total)
T2768 001:105 JLINK_WriteReg(R3, 0x00000000)  returns 0x00 (0000ms, 0882ms total)
T2768 001:105 JLINK_WriteReg(R4, 0x00000000)  returns 0x00 (0000ms, 0882ms total)
T2768 001:105 JLINK_WriteReg(R5, 0x00000000)  returns 0x00 (0000ms, 0882ms total)
T2768 001:105 JLINK_WriteReg(R6, 0x00000000)  returns 0x00 (0000ms, 0882ms total)
T2768 001:105 JLINK_WriteReg(R7, 0x00000000)  returns 0x00 (0000ms, 0882ms total)
T2768 001:105 JLINK_WriteReg(R8, 0x00000000)  returns 0x00 (0000ms, 0882ms total)
T2768 001:105 JLINK_WriteReg(R9, 0x20000160)  returns 0x00 (0000ms, 0882ms total)
T2768 001:105 JLINK_WriteReg(R10, 0x00000000)  returns 0x00 (0000ms, 0882ms total)
T2768 001:105 JLINK_WriteReg(R11, 0x00000000)  returns 0x00 (0000ms, 0882ms total)
T2768 001:105 JLINK_WriteReg(R12, 0x00000000)  returns 0x00 (0000ms, 0882ms total)
T2768 001:105 JLINK_WriteReg(R13, 0x20000800)  returns 0x00 (0000ms, 0882ms total)
T2768 001:105 JLINK_WriteReg(R14, 0x20000001)  returns 0x00 (0000ms, 0882ms total)
T2768 001:105 JLINK_WriteReg(R15, 0x200000F4)  returns 0x00 (0000ms, 0882ms total)
T2768 001:105 JLINK_WriteReg(XPSR, 0x01000000)  returns 0x00 (0001ms, 0882ms total)
T2768 001:106 JLINK_WriteReg(MSP, 0x20000800)  returns 0x00 (0000ms, 0883ms total)
T2768 001:106 JLINK_WriteReg(PSP, 0x20000800)  returns 0x00 (0000ms, 0883ms total)
T2768 001:106 JLINK_WriteReg(BASEPRI, 0x00000000)  returns 0x00 (0000ms, 0883ms total)
T2768 001:106 JLINK_WriteReg(CONTROL, 0x00000000)  returns 0x00 (0000ms, 0883ms total)
T2768 001:106 JLINK_WriteReg(FAULTMASK, 0x00000000)  returns 0x00 (0000ms, 0883ms total)
T2768 001:106 JLINK_WriteReg(BASEPRI_MAX, 0x00000000)  returns 0x00 (0000ms, 0883ms total)
T2768 001:106 JLINK_SetBPEx(Addr = 0x20000000, Type = 0xFFFFFFF2)  returns 0x00000005 (0000ms, 0883ms total)
T2768 001:106 JLINK_Go() -- CPU_WriteMem(4 bytes @ 0xE0002008) -- CPU_WriteMem(4 bytes @ 0xE000200C) -- CPU_WriteMem(4 bytes @ 0xE0002010) -- CPU_WriteMem(4 bytes @ 0xE0002014) -- CPU_WriteMem(4 bytes @ 0xE0002018) -- CPU_WriteMem(4 bytes @ 0xE000201C) (0007ms, 0883ms total)
T2768 001:113 JLINK_IsHalted()  returns FALSE (0000ms, 0890ms total)
T2768 001:163 JLINK_IsHalted() -- CPU_ReadMem(2 bytes @ 0x20000000)  returns TRUE (0007ms, 0890ms total)
T2768 001:170 JLINK_ReadReg(R15)  returns 0x20000000 (0000ms, 0890ms total)
T2768 001:170 JLINK_ClrBPEx(BPHandle = 0x00000005)  returns 0x00 (0000ms, 0890ms total)
T2768 001:170 JLINK_ReadReg(R0)  returns 0x00000000 (0000ms, 0890ms total)
T2768 001:171 JLINK_WriteMem(0x20000164, 0x0400 Bytes, ...) -- Data:  55 49 08 60 54 48 00 68 08 28 28 D1 56 48 00 68 ... -- CPU_WriteMem(1024 bytes @ 0x20000164)  returns 0x400 (0011ms, 0890ms total)
T2768 001:182 JLINK_WriteReg(R0, 0x08000400)  returns 0x00 (0000ms, 0901ms total)
T2768 001:182 JLINK_WriteReg(R1, 0x00000400)  returns 0x00 (0000ms, 0901ms total)
T2768 001:182 JLINK_WriteReg(R2, 0x20000164)  returns 0x00 (0000ms, 0901ms total)
T2768 001:182 JLINK_WriteReg(R3, 0x00000000)  returns 0x00 (0000ms, 0901ms total)
T2768 001:182 JLINK_WriteReg(R4, 0x00000000)  returns 0x00 (0000ms, 0901ms total)
T2768 001:182 JLINK_WriteReg(R5, 0x00000000)  returns 0x00 (0000ms, 0901ms total)
T2768 001:182 JLINK_WriteReg(R6, 0x00000000)  returns 0x00 (0000ms, 0901ms total)
T2768 001:182 JLINK_WriteReg(R7, 0x00000000)  returns 0x00 (0000ms, 0901ms total)
T2768 001:182 JLINK_WriteReg(R8, 0x00000000)  returns 0x00 (0000ms, 0901ms total)
T2768 001:182 JLINK_WriteReg(R9, 0x20000160)  returns 0x00 (0000ms, 0901ms total)
T2768 001:182 JLINK_WriteReg(R10, 0x00000000)  returns 0x00 (0000ms, 0901ms total)
T2768 001:182 JLINK_WriteReg(R11, 0x00000000)  returns 0x00 (0000ms, 0901ms total)
T2768 001:182 JLINK_WriteReg(R12, 0x00000000)  returns 0x00 (0000ms, 0901ms total)
T2768 001:182 JLINK_WriteReg(R13, 0x20000800)  returns 0x00 (0000ms, 0901ms total)
T2768 001:182 JLINK_WriteReg(R14, 0x20000001)  returns 0x00 (0000ms, 0901ms total)
T2768 001:182 JLINK_WriteReg(R15, 0x200000F4)  returns 0x00 (0000ms, 0901ms total)
T2768 001:182 JLINK_WriteReg(XPSR, 0x01000000)  returns 0x00 (0000ms, 0901ms total)
T2768 001:182 JLINK_WriteReg(MSP, 0x20000800)  returns 0x00 (0000ms, 0901ms total)
T2768 001:182 JLINK_WriteReg(PSP, 0x20000800)  returns 0x00 (0000ms, 0901ms total)
T2768 001:182 JLINK_WriteReg(BASEPRI, 0x00000000)  returns 0x00 (0000ms, 0901ms total)
T2768 001:182 JLINK_WriteReg(CONTROL, 0x00000000)  returns 0x00 (0000ms, 0901ms total)
T2768 001:182 JLINK_WriteReg(FAULTMASK, 0x00000000)  returns 0x00 (0000ms, 0901ms total)
T2768 001:182 JLINK_WriteReg(BASEPRI_MAX, 0x00000000)  returns 0x00 (0000ms, 0901ms total)
T2768 001:182 JLINK_SetBPEx(Addr = 0x20000000, Type = 0xFFFFFFF2)  returns 0x00000006 (0000ms, 0901ms total)
T2768 001:182 JLINK_Go() -- CPU_WriteMem(4 bytes @ 0xE0002008) -- CPU_WriteMem(4 bytes @ 0xE000200C) -- CPU_WriteMem(4 bytes @ 0xE0002010) -- CPU_WriteMem(4 bytes @ 0xE0002014) -- CPU_WriteMem(4 bytes @ 0xE0002018) -- CPU_WriteMem(4 bytes @ 0xE000201C) (0007ms, 0901ms total)
T2768 001:189 JLINK_IsHalted()  returns FALSE (0001ms, 0908ms total)
T2768 001:240 JLINK_IsHalted() -- CPU_ReadMem(2 bytes @ 0x20000000)  returns TRUE (0004ms, 0908ms total)
T2768 001:244 JLINK_ReadReg(R15)  returns 0x20000000 (0001ms, 0908ms total)
T2768 001:245 JLINK_ClrBPEx(BPHandle = 0x00000006)  returns 0x00 (0000ms, 0909ms total)
T2768 001:245 JLINK_ReadReg(R0)  returns 0x00000000 (0000ms, 0909ms total)
T2768 001:245 JLINK_WriteMem(0x20000164, 0x0400 Bytes, ...) -- Data:  08 44 5E 49 09 6C 08 44 5C 49 49 6C 08 44 5B 49 ... -- CPU_WriteMem(1024 bytes @ 0x20000164)  returns 0x400 (0011ms, 0909ms total)
T2768 001:256 JLINK_WriteReg(R0, 0x08000800)  returns 0x00 (0000ms, 0920ms total)
T2768 001:256 JLINK_WriteReg(R1, 0x00000400)  returns 0x00 (0000ms, 0920ms total)
T2768 001:256 JLINK_WriteReg(R2, 0x20000164)  returns 0x00 (0000ms, 0920ms total)
T2768 001:256 JLINK_WriteReg(R3, 0x00000000)  returns 0x00 (0000ms, 0920ms total)
T2768 001:256 JLINK_WriteReg(R4, 0x00000000)  returns 0x00 (0000ms, 0920ms total)
T2768 001:256 JLINK_WriteReg(R5, 0x00000000)  returns 0x00 (0001ms, 0920ms total)
T2768 001:257 JLINK_WriteReg(R6, 0x00000000)  returns 0x00 (0000ms, 0921ms total)
T2768 001:257 JLINK_WriteReg(R7, 0x00000000)  returns 0x00 (0000ms, 0921ms total)
T2768 001:257 JLINK_WriteReg(R8, 0x00000000)  returns 0x00 (0000ms, 0921ms total)
T2768 001:257 JLINK_WriteReg(R9, 0x20000160)  returns 0x00 (0000ms, 0921ms total)
T2768 001:257 JLINK_WriteReg(R10, 0x00000000)  returns 0x00 (0000ms, 0921ms total)
T2768 001:257 JLINK_WriteReg(R11, 0x00000000)  returns 0x00 (0000ms, 0921ms total)
T2768 001:257 JLINK_WriteReg(R12, 0x00000000)  returns 0x00 (0000ms, 0921ms total)
T2768 001:257 JLINK_WriteReg(R13, 0x20000800)  returns 0x00 (0000ms, 0921ms total)
T2768 001:257 JLINK_WriteReg(R14, 0x20000001)  returns 0x00 (0000ms, 0921ms total)
T2768 001:257 JLINK_WriteReg(R15, 0x200000F4)  returns 0x00 (0000ms, 0921ms total)
T2768 001:257 JLINK_WriteReg(XPSR, 0x01000000)  returns 0x00 (0000ms, 0921ms total)
T2768 001:257 JLINK_WriteReg(MSP, 0x20000800)  returns 0x00 (0000ms, 0921ms total)
T2768 001:257 JLINK_WriteReg(PSP, 0x20000800)  returns 0x00 (0000ms, 0921ms total)
T2768 001:257 JLINK_WriteReg(BASEPRI, 0x00000000)  returns 0x00 (0000ms, 0921ms total)
T2768 001:257 JLINK_WriteReg(CONTROL, 0x00000000)  returns 0x00 (0000ms, 0921ms total)
T2768 001:257 JLINK_WriteReg(FAULTMASK, 0x00000000)  returns 0x00 (0000ms, 0921ms total)
T2768 001:257 JLINK_WriteReg(BASEPRI_MAX, 0x00000000)  returns 0x00 (0000ms, 0921ms total)
T2768 001:257 JLINK_SetBPEx(Addr = 0x20000000, Type = 0xFFFFFFF2)  returns 0x00000007 (0000ms, 0921ms total)
T2768 001:257 JLINK_Go() -- CPU_WriteMem(4 bytes @ 0xE0002008) -- CPU_WriteMem(4 bytes @ 0xE000200C) -- CPU_WriteMem(4 bytes @ 0xE0002010) -- CPU_WriteMem(4 bytes @ 0xE0002014) -- CPU_WriteMem(4 bytes @ 0xE0002018) -- CPU_WriteMem(4 bytes @ 0xE000201C) (0012ms, 0921ms total)
T2768 001:269 JLINK_IsHalted()  returns FALSE (0000ms, 0933ms total)
T2768 001:319 JLINK_IsHalted() -- CPU_ReadMem(2 bytes @ 0x20000000)  returns TRUE (0004ms, 0933ms total)
T2768 001:323 JLINK_ReadReg(R15)  returns 0x20000000 (0000ms, 0933ms total)
T2768 001:323 JLINK_ClrBPEx(BPHandle = 0x00000007)  returns 0x00 (0000ms, 0933ms total)
T2768 001:323 JLINK_ReadReg(R0)  returns 0x00000000 (0000ms, 0933ms total)
T2768 001:324 JLINK_WriteMem(0x20000164, 0x0400 Bytes, ...) -- Data:  F1 F0 12 30 85 49 01 EB 00 14 00 23 22 46 19 46 ... -- CPU_WriteMem(1024 bytes @ 0x20000164)  returns 0x400 (0011ms, 0933ms total)
T2768 001:335 JLINK_WriteReg(R0, 0x08000C00)  returns 0x00 (0000ms, 0944ms total)
T2768 001:335 JLINK_WriteReg(R1, 0x00000400)  returns 0x00 (0000ms, 0944ms total)
T2768 001:335 JLINK_WriteReg(R2, 0x20000164)  returns 0x00 (0000ms, 0944ms total)
T2768 001:335 JLINK_WriteReg(R3, 0x00000000)  returns 0x00 (0000ms, 0944ms total)
T2768 001:335 JLINK_WriteReg(R4, 0x00000000)  returns 0x00 (0000ms, 0944ms total)
T2768 001:335 JLINK_WriteReg(R5, 0x00000000)  returns 0x00 (0000ms, 0944ms total)
T2768 001:335 JLINK_WriteReg(R6, 0x00000000)  returns 0x00 (0000ms, 0944ms total)
T2768 001:335 JLINK_WriteReg(R7, 0x00000000)  returns 0x00 (0000ms, 0944ms total)
T2768 001:335 JLINK_WriteReg(R8, 0x00000000)  returns 0x00 (0001ms, 0944ms total)
T2768 001:336 JLINK_WriteReg(R9, 0x20000160)  returns 0x00 (0000ms, 0945ms total)
T2768 001:336 JLINK_WriteReg(R10, 0x00000000)  returns 0x00 (0000ms, 0945ms total)
T2768 001:336 JLINK_WriteReg(R11, 0x00000000)  returns 0x00 (0000ms, 0945ms total)
T2768 001:336 JLINK_WriteReg(R12, 0x00000000)  returns 0x00 (0000ms, 0945ms total)
T2768 001:336 JLINK_WriteReg(R13, 0x20000800)  returns 0x00 (0000ms, 0945ms total)
T2768 001:336 JLINK_WriteReg(R14, 0x20000001)  returns 0x00 (0000ms, 0945ms total)
T2768 001:336 JLINK_WriteReg(R15, 0x200000F4)  returns 0x00 (0000ms, 0945ms total)
T2768 001:336 JLINK_WriteReg(XPSR, 0x01000000)  returns 0x00 (0000ms, 0945ms total)
T2768 001:336 JLINK_WriteReg(MSP, 0x20000800)  returns 0x00 (0000ms, 0945ms total)
T2768 001:336 JLINK_WriteReg(PSP, 0x20000800)  returns 0x00 (0000ms, 0945ms total)
T2768 001:336 JLINK_WriteReg(BASEPRI, 0x00000000)  returns 0x00 (0000ms, 0945ms total)
T2768 001:336 JLINK_WriteReg(CONTROL, 0x00000000)  returns 0x00 (0000ms, 0945ms total)
T2768 001:336 JLINK_WriteReg(FAULTMASK, 0x00000000)  returns 0x00 (0000ms, 0945ms total)
T2768 001:336 JLINK_WriteReg(BASEPRI_MAX, 0x00000000)  returns 0x00 (0000ms, 0945ms total)
T2768 001:336 JLINK_SetBPEx(Addr = 0x20000000, Type = 0xFFFFFFF2)  returns 0x00000008 (0000ms, 0945ms total)
T2768 001:336 JLINK_Go() -- CPU_WriteMem(4 bytes @ 0xE0002008) -- CPU_WriteMem(4 bytes @ 0xE000200C) -- CPU_WriteMem(4 bytes @ 0xE0002010) -- CPU_WriteMem(4 bytes @ 0xE0002014) -- CPU_WriteMem(4 bytes @ 0xE0002018) -- CPU_WriteMem(4 bytes @ 0xE000201C) (0007ms, 0945ms total)
T2768 001:343 JLINK_IsHalted()  returns FALSE (0000ms, 0952ms total)
T2768 001:393 JLINK_IsHalted() -- CPU_ReadMem(2 bytes @ 0x20000000)  returns TRUE (0009ms, 0952ms total)
T2768 001:402 JLINK_ReadReg(R15)  returns 0x20000000 (0000ms, 0952ms total)
T2768 001:402 JLINK_ClrBPEx(BPHandle = 0x00000008)  returns 0x00 (0000ms, 0952ms total)
T2768 001:402 JLINK_ReadReg(R0)  returns 0x00000000 (0000ms, 0952ms total)
T2768 001:403 JLINK_WriteMem(0x20000164, 0x0400 Bytes, ...) -- Data:  72 FE 2A E0 95 48 00 68 00 28 10 DC 94 48 00 68 ... -- CPU_WriteMem(1024 bytes @ 0x20000164)  returns 0x400 (0011ms, 0952ms total)
T2768 001:414 JLINK_WriteReg(R0, 0x08001000)  returns 0x00 (0000ms, 0963ms total)
T2768 001:414 JLINK_WriteReg(R1, 0x00000400)  returns 0x00 (0000ms, 0963ms total)
T2768 001:414 JLINK_WriteReg(R2, 0x20000164)  returns 0x00 (0000ms, 0963ms total)
T2768 001:414 JLINK_WriteReg(R3, 0x00000000)  returns 0x00 (0000ms, 0963ms total)
T2768 001:414 JLINK_WriteReg(R4, 0x00000000)  returns 0x00 (0000ms, 0963ms total)
T2768 001:414 JLINK_WriteReg(R5, 0x00000000)  returns 0x00 (0000ms, 0963ms total)
T2768 001:414 JLINK_WriteReg(R6, 0x00000000)  returns 0x00 (0000ms, 0963ms total)
T2768 001:414 JLINK_WriteReg(R7, 0x00000000)  returns 0x00 (0000ms, 0963ms total)
T2768 001:414 JLINK_WriteReg(R8, 0x00000000)  returns 0x00 (0000ms, 0963ms total)
T2768 001:414 JLINK_WriteReg(R9, 0x20000160)  returns 0x00 (0000ms, 0963ms total)
T2768 001:414 JLINK_WriteReg(R10, 0x00000000)  returns 0x00 (0000ms, 0963ms total)
T2768 001:414 JLINK_WriteReg(R11, 0x00000000)  returns 0x00 (0000ms, 0963ms total)
T2768 001:414 JLINK_WriteReg(R12, 0x00000000)  returns 0x00 (0000ms, 0963ms total)
T2768 001:414 JLINK_WriteReg(R13, 0x20000800)  returns 0x00 (0000ms, 0963ms total)
T2768 001:414 JLINK_WriteReg(R14, 0x20000001)  returns 0x00 (0000ms, 0963ms total)
T2768 001:414 JLINK_WriteReg(R15, 0x200000F4)  returns 0x00 (0000ms, 0963ms total)
T2768 001:414 JLINK_WriteReg(XPSR, 0x01000000)  returns 0x00 (0001ms, 0963ms total)
T2768 001:415 JLINK_WriteReg(MSP, 0x20000800)  returns 0x00 (0000ms, 0964ms total)
T2768 001:415 JLINK_WriteReg(PSP, 0x20000800)  returns 0x00 (0000ms, 0964ms total)
T2768 001:415 JLINK_WriteReg(BASEPRI, 0x00000000)  returns 0x00 (0000ms, 0964ms total)
T2768 001:415 JLINK_WriteReg(CONTROL, 0x00000000)  returns 0x00 (0000ms, 0964ms total)
T2768 001:415 JLINK_WriteReg(FAULTMASK, 0x00000000)  returns 0x00 (0000ms, 0964ms total)
T2768 001:415 JLINK_WriteReg(BASEPRI_MAX, 0x00000000)  returns 0x00 (0000ms, 0964ms total)
T2768 001:415 JLINK_SetBPEx(Addr = 0x20000000, Type = 0xFFFFFFF2)  returns 0x00000009 (0000ms, 0964ms total)
T2768 001:415 JLINK_Go() -- CPU_WriteMem(4 bytes @ 0xE0002008) -- CPU_WriteMem(4 bytes @ 0xE000200C) -- CPU_WriteMem(4 bytes @ 0xE0002010) -- CPU_WriteMem(4 bytes @ 0xE0002014) -- CPU_WriteMem(4 bytes @ 0xE0002018) -- CPU_WriteMem(4 bytes @ 0xE000201C) (0007ms, 0964ms total)
T2768 001:422 JLINK_IsHalted()  returns FALSE (0001ms, 0971ms total)
T2768 001:473 JLINK_IsHalted() -- CPU_ReadMem(2 bytes @ 0x20000000)  returns TRUE (0006ms, 0971ms total)
T2768 001:479 JLINK_ReadReg(R15)  returns 0x20000000 (0000ms, 0971ms total)
T2768 001:479 JLINK_ClrBPEx(BPHandle = 0x00000009)  returns 0x00 (0000ms, 0971ms total)
T2768 001:479 JLINK_ReadReg(R0)  returns 0x00000000 (0000ms, 0971ms total)
T2768 001:479 JLINK_WriteMem(0x20000164, 0x0400 Bytes, ...) -- Data:  00 F0 2D FF 01 28 0A D1 04 F0 22 FC 4F F0 01 00 ... -- CPU_WriteMem(1024 bytes @ 0x20000164)  returns 0x400 (0013ms, 0971ms total)
T2768 001:492 JLINK_WriteReg(R0, 0x08001400)  returns 0x00 (0000ms, 0984ms total)
T2768 001:492 JLINK_WriteReg(R1, 0x00000400)  returns 0x00 (0000ms, 0984ms total)
T2768 001:492 JLINK_WriteReg(R2, 0x20000164)  returns 0x00 (0000ms, 0984ms total)
T2768 001:492 JLINK_WriteReg(R3, 0x00000000)  returns 0x00 (0000ms, 0984ms total)
T2768 001:492 JLINK_WriteReg(R4, 0x00000000)  returns 0x00 (0000ms, 0984ms total)
T2768 001:492 JLINK_WriteReg(R5, 0x00000000)  returns 0x00 (0000ms, 0984ms total)
T2768 001:492 JLINK_WriteReg(R6, 0x00000000)  returns 0x00 (0000ms, 0984ms total)
T2768 001:492 JLINK_WriteReg(R7, 0x00000000)  returns 0x00 (0000ms, 0984ms total)
T2768 001:492 JLINK_WriteReg(R8, 0x00000000)  returns 0x00 (0000ms, 0984ms total)
T2768 001:492 JLINK_WriteReg(R9, 0x20000160)  returns 0x00 (0000ms, 0984ms total)
T2768 001:492 JLINK_WriteReg(R10, 0x00000000)  returns 0x00 (0000ms, 0984ms total)
T2768 001:492 JLINK_WriteReg(R11, 0x00000000)  returns 0x00 (0000ms, 0984ms total)
T2768 001:492 JLINK_WriteReg(R12, 0x00000000)  returns 0x00 (0000ms, 0984ms total)
T2768 001:492 JLINK_WriteReg(R13, 0x20000800)  returns 0x00 (0000ms, 0984ms total)
T2768 001:492 JLINK_WriteReg(R14, 0x20000001)  returns 0x00 (0000ms, 0984ms total)
T2768 001:492 JLINK_WriteReg(R15, 0x200000F4)  returns 0x00 (0000ms, 0984ms total)
T2768 001:492 JLINK_WriteReg(XPSR, 0x01000000)  returns 0x00 (0000ms, 0984ms total)
T2768 001:492 JLINK_WriteReg(MSP, 0x20000800)  returns 0x00 (0000ms, 0984ms total)
T2768 001:492 JLINK_WriteReg(PSP, 0x20000800)  returns 0x00 (0000ms, 0984ms total)
T2768 001:492 JLINK_WriteReg(BASEPRI, 0x00000000)  returns 0x00 (0000ms, 0984ms total)
T2768 001:492 JLINK_WriteReg(CONTROL, 0x00000000)  returns 0x00 (0000ms, 0984ms total)
T2768 001:492 JLINK_WriteReg(FAULTMASK, 0x00000000)  returns 0x00 (0000ms, 0984ms total)
T2768 001:492 JLINK_WriteReg(BASEPRI_MAX, 0x00000000)  returns 0x00 (0000ms, 0984ms total)
T2768 001:492 JLINK_SetBPEx(Addr = 0x20000000, Type = 0xFFFFFFF2)  returns 0x0000000A (0000ms, 0984ms total)
T2768 001:492 JLINK_Go() -- CPU_WriteMem(4 bytes @ 0xE0002008) -- CPU_WriteMem(4 bytes @ 0xE000200C) -- CPU_WriteMem(4 bytes @ 0xE0002010) -- CPU_WriteMem(4 bytes @ 0xE0002014) -- CPU_WriteMem(4 bytes @ 0xE0002018) -- CPU_WriteMem(4 bytes @ 0xE000201C) (0009ms, 0984ms total)
T2768 001:501 JLINK_IsHalted()  returns FALSE (0001ms, 0993ms total)
T2768 001:552 JLINK_IsHalted() -- CPU_ReadMem(2 bytes @ 0x20000000)  returns TRUE (0005ms, 0993ms total)
T2768 001:557 JLINK_ReadReg(R15)  returns 0x20000000 (0000ms, 0993ms total)
T2768 001:557 JLINK_ClrBPEx(BPHandle = 0x0000000A)  returns 0x00 (0000ms, 0993ms total)
T2768 001:557 JLINK_ReadReg(R0)  returns 0x00000000 (0000ms, 0993ms total)
T2768 001:558 JLINK_WriteMem(0x20000164, 0x0400 Bytes, ...) -- Data:  BA 48 00 68 00 28 11 DD 04 F0 6D FA 0E E0 4F F4 ... -- CPU_WriteMem(1024 bytes @ 0x20000164)  returns 0x400 (0011ms, 0993ms total)
T2768 001:569 JLINK_WriteReg(R0, 0x08001800)  returns 0x00 (0000ms, 1004ms total)
T2768 001:569 JLINK_WriteReg(R1, 0x00000400)  returns 0x00 (0000ms, 1004ms total)
T2768 001:569 JLINK_WriteReg(R2, 0x20000164)  returns 0x00 (0000ms, 1004ms total)
T2768 001:569 JLINK_WriteReg(R3, 0x00000000)  returns 0x00 (0000ms, 1004ms total)
T2768 001:569 JLINK_WriteReg(R4, 0x00000000)  returns 0x00 (0000ms, 1004ms total)
T2768 001:569 JLINK_WriteReg(R5, 0x00000000)  returns 0x00 (0000ms, 1004ms total)
T2768 001:569 JLINK_WriteReg(R6, 0x00000000)  returns 0x00 (0000ms, 1004ms total)
T2768 001:569 JLINK_WriteReg(R7, 0x00000000)  returns 0x00 (0000ms, 1004ms total)
T2768 001:569 JLINK_WriteReg(R8, 0x00000000)  returns 0x00 (0000ms, 1004ms total)
T2768 001:569 JLINK_WriteReg(R9, 0x20000160)  returns 0x00 (0000ms, 1004ms total)
T2768 001:569 JLINK_WriteReg(R10, 0x00000000)  returns 0x00 (0000ms, 1004ms total)
T2768 001:569 JLINK_WriteReg(R11, 0x00000000)  returns 0x00 (0000ms, 1004ms total)
T2768 001:569 JLINK_WriteReg(R12, 0x00000000)  returns 0x00 (0000ms, 1004ms total)
T2768 001:569 JLINK_WriteReg(R13, 0x20000800)  returns 0x00 (0000ms, 1004ms total)
T2768 001:569 JLINK_WriteReg(R14, 0x20000001)  returns 0x00 (0000ms, 1004ms total)
T2768 001:569 JLINK_WriteReg(R15, 0x200000F4)  returns 0x00 (0000ms, 1004ms total)
T2768 001:569 JLINK_WriteReg(XPSR, 0x01000000)  returns 0x00 (0000ms, 1004ms total)
T2768 001:569 JLINK_WriteReg(MSP, 0x20000800)  returns 0x00 (0000ms, 1004ms total)
T2768 001:569 JLINK_WriteReg(PSP, 0x20000800)  returns 0x00 (0000ms, 1004ms total)
T2768 001:569 JLINK_WriteReg(BASEPRI, 0x00000000)  returns 0x00 (0000ms, 1004ms total)
T2768 001:569 JLINK_WriteReg(CONTROL, 0x00000000)  returns 0x00 (0000ms, 1004ms total)
T2768 001:569 JLINK_WriteReg(FAULTMASK, 0x00000000)  returns 0x00 (0000ms, 1004ms total)
T2768 001:569 JLINK_WriteReg(BASEPRI_MAX, 0x00000000)  returns 0x00 (0000ms, 1004ms total)
T2768 001:569 JLINK_SetBPEx(Addr = 0x20000000, Type = 0xFFFFFFF2)  returns 0x0000000B (0000ms, 1004ms total)
T2768 001:569 JLINK_Go() -- CPU_WriteMem(4 bytes @ 0xE0002008) -- CPU_WriteMem(4 bytes @ 0xE000200C) -- CPU_WriteMem(4 bytes @ 0xE0002010) -- CPU_WriteMem(4 bytes @ 0xE0002014) -- CPU_WriteMem(4 bytes @ 0xE0002018) -- CPU_WriteMem(4 bytes @ 0xE000201C) (0007ms, 1004ms total)
T2768 001:576 JLINK_IsHalted()  returns FALSE (0001ms, 1011ms total)
T2768 001:627 JLINK_IsHalted() -- CPU_ReadMem(2 bytes @ 0x20000000)  returns TRUE (0008ms, 1011ms total)
T2768 001:635 JLINK_ReadReg(R15)  returns 0x20000000 (0000ms, 1011ms total)
T2768 001:635 JLINK_ClrBPEx(BPHandle = 0x0000000B)  returns 0x00 (0000ms, 1011ms total)
T2768 001:635 JLINK_ReadReg(R0)  returns 0x00000000 (0000ms, 1011ms total)
T2768 001:636 JLINK_WriteMem(0x20000164, 0x0400 Bytes, ...) -- Data:  4F F0 15 00 41 49 08 60 4F F0 01 00 40 49 08 70 ... -- CPU_WriteMem(1024 bytes @ 0x20000164)  returns 0x400 (0012ms, 1011ms total)
T2768 001:648 JLINK_WriteReg(R0, 0x08001C00)  returns 0x00 (0000ms, 1023ms total)
T2768 001:648 JLINK_WriteReg(R1, 0x00000400)  returns 0x00 (0000ms, 1023ms total)
T2768 001:648 JLINK_WriteReg(R2, 0x20000164)  returns 0x00 (0000ms, 1023ms total)
T2768 001:648 JLINK_WriteReg(R3, 0x00000000)  returns 0x00 (0000ms, 1023ms total)
T2768 001:648 JLINK_WriteReg(R4, 0x00000000)  returns 0x00 (0000ms, 1023ms total)
T2768 001:648 JLINK_WriteReg(R5, 0x00000000)  returns 0x00 (0000ms, 1023ms total)
T2768 001:648 JLINK_WriteReg(R6, 0x00000000)  returns 0x00 (0000ms, 1023ms total)
T2768 001:648 JLINK_WriteReg(R7, 0x00000000)  returns 0x00 (0000ms, 1023ms total)
T2768 001:648 JLINK_WriteReg(R8, 0x00000000)  returns 0x00 (0000ms, 1023ms total)
T2768 001:648 JLINK_WriteReg(R9, 0x20000160)  returns 0x00 (0000ms, 1023ms total)
T2768 001:648 JLINK_WriteReg(R10, 0x00000000)  returns 0x00 (0000ms, 1023ms total)
T2768 001:648 JLINK_WriteReg(R11, 0x00000000)  returns 0x00 (0000ms, 1023ms total)
T2768 001:648 JLINK_WriteReg(R12, 0x00000000)  returns 0x00 (0000ms, 1023ms total)
T2768 001:648 JLINK_WriteReg(R13, 0x20000800)  returns 0x00 (0000ms, 1023ms total)
T2768 001:648 JLINK_WriteReg(R14, 0x20000001)  returns 0x00 (0000ms, 1023ms total)
T2768 001:648 JLINK_WriteReg(R15, 0x200000F4)  returns 0x00 (0000ms, 1023ms total)
T2768 001:648 JLINK_WriteReg(XPSR, 0x01000000)  returns 0x00 (0000ms, 1023ms total)
T2768 001:648 JLINK_WriteReg(MSP, 0x20000800)  returns 0x00 (0000ms, 1023ms total)
T2768 001:648 JLINK_WriteReg(PSP, 0x20000800)  returns 0x00 (0000ms, 1023ms total)
T2768 001:648 JLINK_WriteReg(BASEPRI, 0x00000000)  returns 0x00 (0000ms, 1023ms total)
T2768 001:648 JLINK_WriteReg(CONTROL, 0x00000000)  returns 0x00 (0000ms, 1023ms total)
T2768 001:648 JLINK_WriteReg(FAULTMASK, 0x00000000)  returns 0x00 (0000ms, 1023ms total)
T2768 001:648 JLINK_WriteReg(BASEPRI_MAX, 0x00000000)  returns 0x00 (0000ms, 1023ms total)
T2768 001:648 JLINK_SetBPEx(Addr = 0x20000000, Type = 0xFFFFFFF2)  returns 0x0000000C (0000ms, 1023ms total)
T2768 001:648 JLINK_Go() -- CPU_WriteMem(4 bytes @ 0xE0002008) -- CPU_WriteMem(4 bytes @ 0xE000200C) -- CPU_WriteMem(4 bytes @ 0xE0002010) -- CPU_WriteMem(4 bytes @ 0xE0002014) -- CPU_WriteMem(4 bytes @ 0xE0002018) -- CPU_WriteMem(4 bytes @ 0xE000201C) (0007ms, 1023ms total)
T2768 001:655 JLINK_IsHalted()  returns FALSE (0001ms, 1030ms total)
T2768 001:706 JLINK_IsHalted() -- CPU_ReadMem(2 bytes @ 0x20000000)  returns TRUE (0004ms, 1030ms total)
T2768 001:710 JLINK_ReadReg(R15)  returns 0x20000000 (0000ms, 1030ms total)
T2768 001:710 JLINK_ClrBPEx(BPHandle = 0x0000000C)  returns 0x00 (0001ms, 1030ms total)
T2768 001:711 JLINK_ReadReg(R0)  returns 0x00000000 (0000ms, 1031ms total)
T2768 001:712 JLINK_WriteMem(0x20000164, 0x0400 Bytes, ...) -- Data:  30 BD 07 E0 58 5C 65 5C A8 42 01 D0 00 20 F7 E7 ... -- CPU_WriteMem(1024 bytes @ 0x20000164)  returns 0x400 (0011ms, 1031ms total)
T2768 001:723 JLINK_WriteReg(R0, 0x08002000)  returns 0x00 (0000ms, 1042ms total)
T2768 001:723 JLINK_WriteReg(R1, 0x00000400)  returns 0x00 (0000ms, 1042ms total)
T2768 001:723 JLINK_WriteReg(R2, 0x20000164)  returns 0x00 (0000ms, 1042ms total)
T2768 001:723 JLINK_WriteReg(R3, 0x00000000)  returns 0x00 (0000ms, 1042ms total)
T2768 001:723 JLINK_WriteReg(R4, 0x00000000)  returns 0x00 (0000ms, 1042ms total)
T2768 001:723 JLINK_WriteReg(R5, 0x00000000)  returns 0x00 (0000ms, 1042ms total)
T2768 001:723 JLINK_WriteReg(R6, 0x00000000)  returns 0x00 (0001ms, 1042ms total)
T2768 001:724 JLINK_WriteReg(R7, 0x00000000)  returns 0x00 (0000ms, 1043ms total)
T2768 001:724 JLINK_WriteReg(R8, 0x00000000)  returns 0x00 (0000ms, 1043ms total)
T2768 001:724 JLINK_WriteReg(R9, 0x20000160)  returns 0x00 (0000ms, 1043ms total)
T2768 001:724 JLINK_WriteReg(R10, 0x00000000)  returns 0x00 (0000ms, 1043ms total)
T2768 001:724 JLINK_WriteReg(R11, 0x00000000)  returns 0x00 (0000ms, 1043ms total)
T2768 001:724 JLINK_WriteReg(R12, 0x00000000)  returns 0x00 (0000ms, 1043ms total)
T2768 001:724 JLINK_WriteReg(R13, 0x20000800)  returns 0x00 (0000ms, 1043ms total)
T2768 001:724 JLINK_WriteReg(R14, 0x20000001)  returns 0x00 (0000ms, 1043ms total)
T2768 001:724 JLINK_WriteReg(R15, 0x200000F4)  returns 0x00 (0000ms, 1043ms total)
T2768 001:724 JLINK_WriteReg(XPSR, 0x01000000)  returns 0x00 (0000ms, 1043ms total)
T2768 001:724 JLINK_WriteReg(MSP, 0x20000800)  returns 0x00 (0000ms, 1043ms total)
T2768 001:724 JLINK_WriteReg(PSP, 0x20000800)  returns 0x00 (0000ms, 1043ms total)
T2768 001:724 JLINK_WriteReg(BASEPRI, 0x00000000)  returns 0x00 (0000ms, 1043ms total)
T2768 001:724 JLINK_WriteReg(CONTROL, 0x00000000)  returns 0x00 (0000ms, 1043ms total)
T2768 001:724 JLINK_WriteReg(FAULTMASK, 0x00000000)  returns 0x00 (0000ms, 1043ms total)
T2768 001:724 JLINK_WriteReg(BASEPRI_MAX, 0x00000000)  returns 0x00 (0000ms, 1043ms total)
T2768 001:724 JLINK_SetBPEx(Addr = 0x20000000, Type = 0xFFFFFFF2)  returns 0x0000000D (0000ms, 1043ms total)
T2768 001:724 JLINK_Go() -- CPU_WriteMem(4 bytes @ 0xE0002008) -- CPU_WriteMem(4 bytes @ 0xE000200C) -- CPU_WriteMem(4 bytes @ 0xE0002010) -- CPU_WriteMem(4 bytes @ 0xE0002014) -- CPU_WriteMem(4 bytes @ 0xE0002018) -- CPU_WriteMem(4 bytes @ 0xE000201C) (0009ms, 1043ms total)
T2768 001:733 JLINK_IsHalted()  returns FALSE (0001ms, 1052ms total)
T2768 001:784 JLINK_IsHalted() -- CPU_ReadMem(2 bytes @ 0x20000000)  returns TRUE (0005ms, 1052ms total)
T2768 001:789 JLINK_ReadReg(R15)  returns 0x20000000 (0000ms, 1052ms total)
T2768 001:789 JLINK_ClrBPEx(BPHandle = 0x0000000D)  returns 0x00 (0000ms, 1052ms total)
T2768 001:789 JLINK_ReadReg(R0)  returns 0x00000000 (0000ms, 1052ms total)
T2768 001:790 JLINK_WriteMem(0x20000164, 0x0400 Bytes, ...) -- Data:  20 F4 80 20 08 60 08 46 40 68 20 F4 FE 00 48 60 ... -- CPU_WriteMem(1024 bytes @ 0x20000164)  returns 0x400 (0012ms, 1052ms total)
T2768 001:802 JLINK_WriteReg(R0, 0x08002400)  returns 0x00 (0000ms, 1064ms total)
T2768 001:802 JLINK_WriteReg(R1, 0x00000400)  returns 0x00 (0000ms, 1064ms total)
T2768 001:802 JLINK_WriteReg(R2, 0x20000164)  returns 0x00 (0000ms, 1064ms total)
T2768 001:802 JLINK_WriteReg(R3, 0x00000000)  returns 0x00 (0000ms, 1064ms total)
T2768 001:802 JLINK_WriteReg(R4, 0x00000000)  returns 0x00 (0000ms, 1064ms total)
T2768 001:802 JLINK_WriteReg(R5, 0x00000000)  returns 0x00 (0000ms, 1064ms total)
T2768 001:802 JLINK_WriteReg(R6, 0x00000000)  returns 0x00 (0000ms, 1064ms total)
T2768 001:802 JLINK_WriteReg(R7, 0x00000000)  returns 0x00 (0000ms, 1064ms total)
T2768 001:802 JLINK_WriteReg(R8, 0x00000000)  returns 0x00 (0000ms, 1064ms total)
T2768 001:803 JLINK_WriteReg(R9, 0x20000160)  returns 0x00 (0000ms, 1064ms total)
T2768 001:803 JLINK_WriteReg(R10, 0x00000000)  returns 0x00 (0000ms, 1064ms total)
T2768 001:803 JLINK_WriteReg(R11, 0x00000000)  returns 0x00 (0000ms, 1064ms total)
T2768 001:803 JLINK_WriteReg(R12, 0x00000000)  returns 0x00 (0000ms, 1064ms total)
T2768 001:803 JLINK_WriteReg(R13, 0x20000800)  returns 0x00 (0000ms, 1064ms total)
T2768 001:803 JLINK_WriteReg(R14, 0x20000001)  returns 0x00 (0000ms, 1064ms total)
T2768 001:803 JLINK_WriteReg(R15, 0x200000F4)  returns 0x00 (0000ms, 1064ms total)
T2768 001:803 JLINK_WriteReg(XPSR, 0x01000000)  returns 0x00 (0000ms, 1064ms total)
T2768 001:803 JLINK_WriteReg(MSP, 0x20000800)  returns 0x00 (0000ms, 1064ms total)
T2768 001:803 JLINK_WriteReg(PSP, 0x20000800)  returns 0x00 (0000ms, 1064ms total)
T2768 001:803 JLINK_WriteReg(BASEPRI, 0x00000000)  returns 0x00 (0000ms, 1064ms total)
T2768 001:803 JLINK_WriteReg(CONTROL, 0x00000000)  returns 0x00 (0000ms, 1064ms total)
T2768 001:803 JLINK_WriteReg(FAULTMASK, 0x00000000)  returns 0x00 (0000ms, 1064ms total)
T2768 001:803 JLINK_WriteReg(BASEPRI_MAX, 0x00000000)  returns 0x00 (0000ms, 1064ms total)
T2768 001:803 JLINK_SetBPEx(Addr = 0x20000000, Type = 0xFFFFFFF2)  returns 0x0000000E (0000ms, 1064ms total)
T2768 001:803 JLINK_Go() -- CPU_WriteMem(4 bytes @ 0xE0002008) -- CPU_WriteMem(4 bytes @ 0xE000200C) -- CPU_WriteMem(4 bytes @ 0xE0002010) -- CPU_WriteMem(4 bytes @ 0xE0002014) -- CPU_WriteMem(4 bytes @ 0xE0002018) -- CPU_WriteMem(4 bytes @ 0xE000201C) (0010ms, 1064ms total)
T2768 001:813 JLINK_IsHalted()  returns FALSE (0001ms, 1074ms total)
T2768 001:869 JLINK_IsHalted() -- CPU_ReadMem(2 bytes @ 0x20000000)  returns TRUE (0011ms, 1074ms total)
T2768 001:881 JLINK_ReadReg(R15)  returns 0x20000000 (0000ms, 1074ms total)
T2768 001:881 JLINK_ClrBPEx(BPHandle = 0x0000000E)  returns 0x00 (0000ms, 1074ms total)
T2768 001:881 JLINK_ReadReg(R0)  returns 0x00000000 (0000ms, 1074ms total)
T2768 001:881 JLINK_WriteMem(0x20000164, 0x0400 Bytes, ...) -- Data:  08 03 FF F7 98 FF 00 21 4F F4 80 50 FF F7 93 FF ... -- CPU_WriteMem(1024 bytes @ 0x20000164)  returns 0x400 (0013ms, 1074ms total)
T2768 001:894 JLINK_WriteReg(R0, 0x08002800)  returns 0x00 (0000ms, 1087ms total)
T2768 001:894 JLINK_WriteReg(R1, 0x00000400)  returns 0x00 (0000ms, 1087ms total)
T2768 001:894 JLINK_WriteReg(R2, 0x20000164)  returns 0x00 (0000ms, 1087ms total)
T2768 001:894 JLINK_WriteReg(R3, 0x00000000)  returns 0x00 (0000ms, 1087ms total)
T2768 001:894 JLINK_WriteReg(R4, 0x00000000)  returns 0x00 (0000ms, 1087ms total)
T2768 001:894 JLINK_WriteReg(R5, 0x00000000)  returns 0x00 (0000ms, 1087ms total)
T2768 001:894 JLINK_WriteReg(R6, 0x00000000)  returns 0x00 (0000ms, 1087ms total)
T2768 001:894 JLINK_WriteReg(R7, 0x00000000)  returns 0x00 (0000ms, 1087ms total)
T2768 001:894 JLINK_WriteReg(R8, 0x00000000)  returns 0x00 (0000ms, 1087ms total)
T2768 001:894 JLINK_WriteReg(R9, 0x20000160)  returns 0x00 (0000ms, 1087ms total)
T2768 001:894 JLINK_WriteReg(R10, 0x00000000)  returns 0x00 (0000ms, 1087ms total)
T2768 001:894 JLINK_WriteReg(R11, 0x00000000)  returns 0x00 (0000ms, 1087ms total)
T2768 001:894 JLINK_WriteReg(R12, 0x00000000)  returns 0x00 (0000ms, 1087ms total)
T2768 001:894 JLINK_WriteReg(R13, 0x20000800)  returns 0x00 (0000ms, 1087ms total)
T2768 001:894 JLINK_WriteReg(R14, 0x20000001)  returns 0x00 (0000ms, 1087ms total)
T2768 001:894 JLINK_WriteReg(R15, 0x200000F4)  returns 0x00 (0000ms, 1087ms total)
T2768 001:894 JLINK_WriteReg(XPSR, 0x01000000)  returns 0x00 (0000ms, 1087ms total)
T2768 001:894 JLINK_WriteReg(MSP, 0x20000800)  returns 0x00 (0000ms, 1087ms total)
T2768 001:894 JLINK_WriteReg(PSP, 0x20000800)  returns 0x00 (0000ms, 1087ms total)
T2768 001:894 JLINK_WriteReg(BASEPRI, 0x00000000)  returns 0x00 (0000ms, 1087ms total)
T2768 001:894 JLINK_WriteReg(CONTROL, 0x00000000)  returns 0x00 (0000ms, 1087ms total)
T2768 001:894 JLINK_WriteReg(FAULTMASK, 0x00000000)  returns 0x00 (0000ms, 1087ms total)
T2768 001:894 JLINK_WriteReg(BASEPRI_MAX, 0x00000000)  returns 0x00 (0000ms, 1087ms total)
T2768 001:894 JLINK_SetBPEx(Addr = 0x20000000, Type = 0xFFFFFFF2)  returns 0x0000000F (0000ms, 1087ms total)
